T4D90 000:020.343   SEGGER J-Link V6.86 Log File
T4D90 000:020.509   DLL Compiled: Sep 24 2020 17:31:31
T4D90 000:020.525   Logging started @ 2021-01-20 13:32
T4D90 000:020.539 - 20.549ms
T4D90 000:020.563 JLINK_SetWarnOutHandler(...)
T4D90 000:020.580 - 0.024ms
T4D90 000:020.598 JLINK_OpenEx(...)
T4D90 000:022.754   Firmware: J-Link V10 compiled Sep 21 2020 16:57:59
T4D90 000:022.991   Decompressing FW timestamp took 169 us
T4D90 000:025.475   Hardware: V10.10
T4D90 000:025.521   S/N: 50116470
T4D90 000:025.543   OEM: SEGGER
T4D90 000:025.568   Feature(s): GDB
T4D90 000:027.366   TELNET listener socket opened on port 19021
T4D90 000:027.637   WEBSRV Starting webserver
T4D90 000:027.893   WEBSRV Webserver running on local port 19080
T4D90 000:027.936 - 7.345ms returns "O.K."
T4D90 000:027.965 JLINK_GetEmuCaps()
T4D90 000:027.998 - 0.040ms returns 0xB9FF7BBF
T4D90 000:028.025 JLINK_TIF_GetAvailable(...)
T4D90 000:028.179 - 0.166ms
T4D90 000:028.205 JLINK_SetErrorOutHandler(...)
T4D90 000:028.221 - 0.023ms
T4D90 000:028.248 JLINK_ExecCommand("ProjectFile = "C:\Users\nxf48054\Desktop\pytorch\glow\eIQ Glow EAR2.1 RT1060\SDK_2.8.1_EVK-MIMXRT1060\boards\evkmimxrt1060\demo_apps\hello_world_cache_test\mdk\JLinkSettings.ini"", ...). 
T4D90 000:043.536   Ref file found at: C:\Keil_v5\ARM\Segger\JLinkDevices.ref
T4D90 000:043.703   XML referenced by ref file: C:\Program Files (x86)\SEGGER\JLink\JLinkDevices.xml
T4D90 000:044.734   C:\Program Files (x86)\SEGGER\JLink\JLinkDevices.xml evaluated successfully.
T4D90 000:116.837 - 88.606ms returns 0x00
T4D90 000:116.895 JLINK_ExecCommand("Device = MIMXRT1062DVL6A", ...). 
T4D90 000:126.512   Device "MIMXRT1062XXX6A" selected.
T4D90 000:127.456 - 10.552ms returns 0x00
T4D90 000:127.494 JLINK_GetHardwareVersion()
T4D90 000:127.510 - 0.023ms returns 101000
T4D90 000:127.572 JLINK_GetDLLVersion()
T4D90 000:127.587 - 0.022ms returns 68600
T4D90 000:127.605 JLINK_GetOEMString(...)
T4D90 000:127.623 JLINK_GetFirmwareString(...)
T4D90 000:127.638 - 0.022ms
T4D90 000:127.675 JLINK_GetDLLVersion()
T4D90 000:127.691 - 0.022ms returns 68600
T4D90 000:127.708 JLINK_GetCompileDateTime()
T4D90 000:127.723 - 0.022ms
T4D90 000:127.748 JLINK_GetFirmwareString(...)
T4D90 000:127.763 - 0.022ms
T4D90 000:127.785 JLINK_GetHardwareVersion()
T4D90 000:127.800 - 0.021ms returns 101000
T4D90 000:127.823 JLINK_GetSN()
T4D90 000:127.838 - 0.022ms returns 50116470
T4D90 000:127.860 JLINK_GetOEMString(...)
T4D90 000:127.890 JLINK_TIF_Select(JLINKARM_TIF_SWD)
T4D90 000:128.964 - 1.113ms returns 0x00
T4D90 000:129.036 JLINK_HasError()
T4D90 000:129.117 JLINK_SetSpeed(5000)
T4D90 000:129.407 - 0.306ms
T4D90 000:129.455 JLINK_GetId()
T4D90 000:129.739   InitTarget() start
T4D90 000:129.769    J-Link Script File: Executing InitTarget()
T4D90 000:129.797   InitTarget()
T4D90 000:133.214   _TargetHalt: CPU halted
T4D90 000:133.252   InitTarget() end
T4D90 000:133.829   Found SW-DP with ID 0x0BD11477
T4D90 000:135.427   DPIDR: 0x0BD11477
T4D90 000:135.467   Scanning AP map to find all available APs
T4D90 000:136.021   AP[1]: Stopped AP scan as end of AP map has been reached
T4D90 000:136.054   AP[0]: AHB-AP (IDR: 0x04770041)
T4D90 000:136.082   Iterating through AP map to find AHB-AP to use
T4D90 000:136.681   AP[0]: Core found
T4D90 000:136.714   AP[0]: AHB-AP ROM base: 0xE00FD000
T4D90 000:137.038   CPUID register: 0x411FC271. Implementer code: 0x41 (ARM)
T4D90 000:137.071   Found Cortex-M7 r1p1, Little endian.
T4D90 000:238.107   -- Max. mem block: 0x000045C0
T4D90 000:238.759   CPU_ReadMem(4 bytes @ 0xE000EDF0)
T4D90 000:239.306   CPU_ReadMem(4 bytes @ 0xE0002000)
T4D90 000:239.884   FPUnit: 8 code (BP) slots and 0 literal slots
T4D90 000:239.915   CPU_ReadMem(4 bytes @ 0xE000EDFC)
T4D90 000:240.359   CPU_WriteMem(4 bytes @ 0xE000EDFC)
T4D90 000:240.786   CPU_ReadMem(4 bytes @ 0xE0001000)
T4D90 000:241.232   CPU_WriteMem(4 bytes @ 0xE0001000)
T4D90 000:241.618   CPU_ReadMem(4 bytes @ 0xE000ED88)
T4D90 000:242.024   CPU_WriteMem(4 bytes @ 0xE000ED88)
T4D90 000:242.728   CPU_ReadMem(4 bytes @ 0xE000ED88)
T4D90 000:243.333   CPU_WriteMem(4 bytes @ 0xE000ED88)
T4D90 000:243.788   CoreSight components:
T4D90 000:243.824   ROMTbl[0] @ E00FD000
T4D90 000:243.848   CPU_ReadMem(64 bytes @ 0xE00FD000)
T4D90 000:244.458   CPU_ReadMem(32 bytes @ 0xE00FEFE0)
T4D90 000:244.949   ROMTbl[0][0]: E00FE000, CID: B105100D, PID: 000BB4C8 ROM Table
T4D90 000:245.003   ROMTbl[1] @ E00FE000
T4D90 000:245.073   CPU_ReadMem(64 bytes @ 0xE00FE000)
T4D90 000:245.629   CPU_ReadMem(32 bytes @ 0xE00FFFE0)
T4D90 000:246.127   ROMTbl[1][0]: E00FF000, CID: B105100D, PID: 000BB4C7 ROM Table
T4D90 000:246.159   ROMTbl[2] @ E00FF000
T4D90 000:246.181   CPU_ReadMem(64 bytes @ 0xE00FF000)
T4D90 000:246.763   CPU_ReadMem(32 bytes @ 0xE000EFE0)
T4D90 000:247.233   ROMTbl[2][0]: E000E000, CID: B105E00D, PID: 000BB00C SCS-M7
T4D90 000:247.261   CPU_ReadMem(32 bytes @ 0xE0001FE0)
T4D90 000:247.744   ROMTbl[2][1]: E0001000, CID: B105E00D, PID: 000BB002 DWT
T4D90 000:247.771   CPU_ReadMem(32 bytes @ 0xE0002FE0)
T4D90 000:248.396   ROMTbl[2][2]: E0002000, CID: B105E00D, PID: 000BB00E FPB-M7
T4D90 000:248.424   CPU_ReadMem(32 bytes @ 0xE0000FE0)
T4D90 000:249.016   ROMTbl[2][3]: E0000000, CID: B105E00D, PID: 000BB001 ITM
T4D90 000:249.062   CPU_ReadMem(32 bytes @ 0xE0041FE0)
T4D90 000:249.691   ROMTbl[1][1]: E0041000, CID: B105900D, PID: 001BB975 ETM-M7
T4D90 000:249.720   CPU_ReadMem(32 bytes @ 0xE0042FE0)
T4D90 000:250.308   ROMTbl[1][2]: E0042000, CID: B105900D, PID: 004BB906 CTI
T4D90 000:250.335   CPU_ReadMem(32 bytes @ 0xE0040FE0)
T4D90 000:250.930   ROMTbl[0][1]: E0040000, CID: B105900D, PID: 000BB9A9 TPIU-M7
T4D90 000:250.961   CPU_ReadMem(32 bytes @ 0xE0043FE0)
T4D90 000:251.592   ROMTbl[0][2]: E0043000, CID: B105F00D, PID: 001BB101 TSG
T4D90 000:251.620   CPU_ReadMem(4 bytes @ 0xE000ED78)
T4D90 000:252.073   Cache: Separate I- and D-cache.
T4D90 000:252.094   CPU_WriteMem(4 bytes @ 0xE000ED84)
T4D90 000:252.408   CPU_ReadMem(4 bytes @ 0xE000ED80)
T4D90 000:252.924   I-Cache L1: 32 KB, 512 Sets, 32 Bytes/Line, 2-Way
T4D90 000:252.955   CPU_WriteMem(4 bytes @ 0xE000ED84)
T4D90 000:253.294   CPU_ReadMem(4 bytes @ 0xE000ED80)
T4D90 000:253.622   D-Cache L1: 32 KB, 256 Sets, 32 Bytes/Line, 4-Way
T4D90 000:253.908 - 124.478ms returns 0x0BD11477
T4D90 000:253.955 JLINK_GetDLLVersion()
T4D90 000:254.005 - 0.074ms returns 68600
T4D90 000:254.104 JLINK_CORE_GetFound()
T4D90 000:254.159 - 0.077ms returns 0xE0100FF
T4D90 000:254.208 JLINK_GetDebugInfo(0x100 = JLINKARM_ROM_TABLE_ADDR_INDEX)
T4D90 000:254.224   Value=0xE00FD000
T4D90 000:254.246 - 0.046ms returns 0
T4D90 000:254.274 JLINK_GetDebugInfo(0x100 = JLINKARM_ROM_TABLE_ADDR_INDEX)
T4D90 000:254.305   Value=0xE00FD000
T4D90 000:254.360 - 0.112ms returns 0
T4D90 000:254.397 JLINK_GetDebugInfo(0x101 = JLINKARM_DEBUG_INFO_ETM_ADDR_INDEX)
T4D90 000:254.427   Value=0xE0041000
T4D90 000:254.499 - 0.123ms returns 0
T4D90 000:254.535 JLINK_ReadMemEx(0xE0041FD0, 0x20 Bytes, Flags = 0x02000004)
T4D90 000:254.569   CPU_ReadMem(32 bytes @ 0xE0041FD0)
T4D90 000:255.041   Data:  04 00 00 00 00 00 00 00 00 00 00 00 00 00 00 00 ...
T4D90 000:255.110 - 0.598ms returns 32 (0x20)
T4D90 000:255.175 JLINK_GetDebugInfo(0x102 = JLINKARM_DEBUG_INFO_MTB_ADDR_INDEX)
T4D90 000:255.220   Value=0x00000000
T4D90 000:255.275 - 0.109ms returns 0
T4D90 000:255.309 JLINK_GetDebugInfo(0x103 = JLINKARM_DEBUG_INFO_TPIU_ADDR_INDEX)
T4D90 000:255.359   Value=0xE0040000
T4D90 000:255.382 - 0.080ms returns 0
T4D90 000:255.430 JLINK_GetDebugInfo(0x104 = JLINKARM_DEBUG_INFO_ITM_ADDR_INDEX)
T4D90 000:255.459   Value=0xE0000000
T4D90 000:255.513 - 0.104ms returns 0
T4D90 000:255.559 JLINK_GetDebugInfo(0x105 = JLINKARM_DEBUG_INFO_DWT_ADDR_INDEX)
T4D90 000:255.610   Value=0xE0001000
T4D90 000:255.661 - 0.125ms returns 0
T4D90 000:255.714 JLINK_GetDebugInfo(0x106 = JLINKARM_DEBUG_INFO_FPB_ADDR_INDEX)
T4D90 000:255.757   Value=0xE0002000
T4D90 000:255.794 - 0.101ms returns 0
T4D90 000:255.840 JLINK_GetDebugInfo(0x107 = JLINKARM_DEBUG_INFO_NVIC_ADDR_INDEX)
T4D90 000:255.858   Value=0xE000E000
T4D90 000:255.883 - 0.050ms returns 0
T4D90 000:255.914 JLINK_GetDebugInfo(0x10C = JLINKARM_DEBUG_INFO_DBG_ADDR_INDEX)
T4D90 000:255.929   Value=0xE000EDF0
T4D90 000:256.005 - 0.098ms returns 0
T4D90 000:256.051 JLINK_GetDebugInfo(0x01 = Unknown)
T4D90 000:256.081   Value=0x00000001
T4D90 000:256.130 - 0.101ms returns 0
T4D90 000:256.177 JLINK_ReadMemU32(0xE000ED00, 0x1 Items)
T4D90 000:256.227   CPU_ReadMem(4 bytes @ 0xE000ED00)
T4D90 000:256.527   Data:  71 C2 1F 41
T4D90 000:256.561   Debug reg: CPUID
T4D90 000:256.585 - 0.428ms returns 1 (0x1)
T4D90 000:256.619 JLINK_GetDebugInfo(0x10F = JLINKARM_DEBUG_INFO_HAS_CORTEX_M_SECURITY_EXT_INDEX)
T4D90 000:256.636   Value=0x00000000
T4D90 000:256.657 - 0.045ms returns 0
T4D90 000:256.676 JLINK_HasError()
T4D90 000:256.694 JLINK_SetResetType(JLINKARM_CM3_RESET_TYPE_CORE)
T4D90 000:256.710 - 0.022ms returns JLINKARM_CM3_RESET_TYPE_NORMAL
T4D90 000:256.728 JLINK_Reset()
T4D90 000:256.758   CPU is running
T4D90 000:256.783   CPU_WriteMem(4 bytes @ 0xE000EDF0)
T4D90 000:257.151   CPU is running
T4D90 000:257.181   CPU_WriteMem(4 bytes @ 0xE000EDFC)
T4D90 000:257.512   Reset: Halt core after reset via DEMCR.VC_CORERESET.
T4D90 000:257.786   Reset: Reset device via AIRCR.VECTRESET.
T4D90 000:257.829   CPU is running
T4D90 000:257.852   CPU_WriteMem(4 bytes @ 0xE000ED0C)
T4D90 000:258.172   CPU_ReadMem(4 bytes @ 0xE000EDF0)
T4D90 000:258.512   CPU_ReadMem(4 bytes @ 0xE000EDF0)
T4D90 000:258.864   CPU is running
T4D90 000:258.892   CPU_WriteMem(4 bytes @ 0xE000EDF0)
T4D90 000:259.251   CPU is running
T4D90 000:259.279   CPU_WriteMem(4 bytes @ 0xE000EDFC)
T4D90 000:265.481   CPU_ReadMem(4 bytes @ 0xE000EDF0)
T4D90 000:267.944   CPU_WriteMem(4 bytes @ 0xE0002000)
T4D90 000:268.386   CPU_ReadMem(4 bytes @ 0xE000EDFC)
T4D90 000:268.882   CPU_ReadMem(4 bytes @ 0xE0001000)
T4D90 000:269.359 - 12.645ms
T4D90 000:269.399 JLINK_HasError()
T4D90 000:269.418 JLINK_ReadReg(R15 (PC))
T4D90 000:269.439 - 0.028ms returns 0x00202090
T4D90 000:269.457 JLINK_ReadReg(XPSR)
T4D90 000:269.473 - 0.023ms returns 0x01000000
T4D90 000:269.491 JLINK_Halt()
T4D90 000:269.505 - 0.023ms returns 0x00
T4D90 000:269.525 JLINK_ReadMemU32(0xE000EDF0, 0x1 Items)
T4D90 000:269.543   CPU_ReadMem(4 bytes @ 0xE000EDF0)
T4D90 000:269.956   Data:  03 00 03 00
T4D90 000:269.986   Debug reg: DHCSR
T4D90 000:270.008 - 0.490ms returns 1 (0x1)
T4D90 000:270.033 JLINK_WriteU32_64(0xE000EDF0, 0xA05F0003)
T4D90 000:270.051   Debug reg: DHCSR
T4D90 000:270.086   CPU_WriteMem(4 bytes @ 0xE000EDF0)
T4D90 000:270.484 - 0.464ms returns 0 (0x00000000)
T4D90 000:270.512 JLINK_WriteU32_64(0xE000EDFC, 0x01000000)
T4D90 000:270.528   Debug reg: DEMCR
T4D90 000:270.555   CPU_WriteMem(4 bytes @ 0xE000EDFC)
T4D90 000:270.946 - 0.448ms returns 0 (0x00000000)
T4D90 000:270.998 JLINK_GetHWStatus(...)
T4D90 000:271.303 - 0.352ms returns 0
T4D90 000:271.385 JLINK_GetNumBPUnits(Type = 0xFFFFFF00)
T4D90 000:271.403 - 0.026ms returns 0x08
T4D90 000:271.421 JLINK_GetNumBPUnits(Type = 0xF0)
T4D90 000:271.436 - 0.022ms returns 0x2000
T4D90 000:271.453 JLINK_GetNumWPUnits()
T4D90 000:271.468 - 0.021ms returns 4
T4D90 000:271.499 JLINK_GetSpeed()
T4D90 000:271.514 - 0.022ms returns 5000
T4D90 000:271.541 JLINK_ReadMemU32(0xE000E004, 0x1 Items)
T4D90 000:271.561   CPU_ReadMem(4 bytes @ 0xE000E004)
T4D90 000:271.942   Data:  04 00 00 00
T4D90 000:271.972 - 0.439ms returns 1 (0x1)
T4D90 000:271.994 JLINK_ReadMemU32(0xE000E004, 0x1 Items)
T4D90 000:272.014   CPU_ReadMem(4 bytes @ 0xE000E004)
T4D90 000:272.423   Data:  04 00 00 00
T4D90 000:272.496 - 0.528ms returns 1 (0x1)
T4D90 000:272.537 JLINK_WriteMemEx(0xE0001000, 0x0000001C Bytes, Flags = 0x02000004)
T4D90 000:272.574   Data:  01 00 00 00 00 00 00 00 00 00 00 00 00 00 00 00 ...
T4D90 000:273.485   CPU_WriteMem(28 bytes @ 0xE0001000)
T4D90 000:273.899 - 1.376ms returns 0x1C
T4D90 000:273.939 JLINK_HasError()
T4D90 000:273.959 JLINK_ReadReg(R15 (PC))
T4D90 000:273.977 - 0.026ms returns 0x00202090
T4D90 000:273.999 JLINK_ReadReg(XPSR)
T4D90 000:274.017 - 0.026ms returns 0x01000000
T4D90 000:278.177 JLINK_ReadMemEx(0xE0001004, 0x4 Bytes, Flags = 0x02000000)
T4D90 000:278.208   Data:  00 00 00 00
T4D90 000:278.232   Debug reg: DWT_CYCCNT
T4D90 000:278.255 - 0.089ms returns 4 (0x4)
T4D90 002:046.325 JLINK_ReadMemEx(0x00000000, 0x3C Bytes, Flags = 0x02000000)
T4D90 002:046.373   CPU_ReadMem(60 bytes @ 0x00000000)
T4D90 002:046.944   Data:  DE A6 58 58 E5 DA C0 AC FD 51 E1 47 D3 4A ED EE ...
T4D90 002:046.974 - 0.658ms returns 60 (0x3C)
T4D90 002:046.996 JLINK_ReadMemEx(0x00000000, 0x2 Bytes, Flags = 0x02000000)
T4D90 002:047.016   CPU_ReadMem(2 bytes @ 0x00000000)
T4D90 002:047.400   Data:  DE A6
T4D90 002:047.431 - 0.442ms returns 2 (0x2)
T4D90 002:047.452 JLINK_ReadMemEx(0x00000002, 0x2 Bytes, Flags = 0x02000000)
T4D90 002:047.471   CPU_ReadMem(2 bytes @ 0x00000002)
T4D90 002:047.792   Data:  58 58
T4D90 002:047.818 - 0.373ms returns 2 (0x2)
T4D90 002:047.847 JLINK_ReadMemEx(0x00000002, 0x2 Bytes, Flags = 0x02000000)
T4D90 002:047.867   CPU_ReadMem(2 bytes @ 0x00000002)
T4D90 002:048.288   Data:  58 58
T4D90 002:048.316 - 0.476ms returns 2 (0x2)
T4D90 002:048.336 JLINK_ReadMemEx(0x00000004, 0x3C Bytes, Flags = 0x02000000)
T4D90 002:048.355   CPU_ReadMem(60 bytes @ 0x00000004)
T4D90 002:049.064   Data:  E5 DA C0 AC FD 51 E1 47 D3 4A ED EE 12 18 BB 40 ...
T4D90 002:049.093 - 0.764ms returns 60 (0x3C)
T4D90 002:049.114 JLINK_ReadMemEx(0x00000004, 0x2 Bytes, Flags = 0x02000000)
T4D90 002:049.134   CPU_ReadMem(2 bytes @ 0x00000004)
T4D90 002:049.542   Data:  E5 DA
T4D90 002:049.572 - 0.468ms returns 2 (0x2)
T4D90 002:049.601 JLINK_ReadMemEx(0x00000004, 0x3C Bytes, Flags = 0x02000000)
T4D90 002:049.622   CPU_ReadMem(60 bytes @ 0x00000004)
T4D90 002:050.363   Data:  E5 DA C0 AC FD 51 E1 47 D3 4A ED EE 12 18 BB 40 ...
T4D90 002:050.392 - 0.799ms returns 60 (0x3C)
T4D90 002:050.413 JLINK_ReadMemEx(0x00000004, 0x2 Bytes, Flags = 0x02000000)
T4D90 002:050.433   CPU_ReadMem(2 bytes @ 0x00000004)
T4D90 002:050.896   Data:  E5 DA
T4D90 002:050.925 - 0.519ms returns 2 (0x2)
T4D90 002:050.947 JLINK_ReadMemEx(0x00000006, 0x2 Bytes, Flags = 0x02000000)
T4D90 002:050.967   CPU_ReadMem(2 bytes @ 0x00000006)
T4D90 002:051.448   Data:  C0 AC
T4D90 002:051.478 - 0.538ms returns 2 (0x2)
T4D90 002:051.504 JLINK_ReadMemEx(0x00000006, 0x2 Bytes, Flags = 0x02000000)
T4D90 002:051.525   CPU_ReadMem(2 bytes @ 0x00000006)
T4D90 002:051.854   Data:  C0 AC
T4D90 002:051.885 - 0.388ms returns 2 (0x2)
T4D90 002:051.906 JLINK_ReadMemEx(0x00000008, 0x3C Bytes, Flags = 0x02000000)
T4D90 002:051.927   CPU_ReadMem(60 bytes @ 0x00000008)
T4D90 002:052.641   Data:  FD 51 E1 47 D3 4A ED EE 12 18 BB 40 69 EE 07 62 ...
T4D90 002:052.702 - 0.816ms returns 60 (0x3C)
T4D90 002:052.736 JLINK_ReadMemEx(0x00000008, 0x2 Bytes, Flags = 0x02000000)
T4D90 002:052.755   CPU_ReadMem(2 bytes @ 0x00000008)
T4D90 002:053.184   Data:  FD 51
T4D90 002:053.227 - 0.498ms returns 2 (0x2)
T4D90 002:053.253 JLINK_ReadMemEx(0x00000008, 0x3C Bytes, Flags = 0x02000000)
T4D90 002:053.272   CPU_ReadMem(60 bytes @ 0x00000008)
T4D90 002:054.047   Data:  FD 51 E1 47 D3 4A ED EE 12 18 BB 40 69 EE 07 62 ...
T4D90 002:054.090 - 0.844ms returns 60 (0x3C)
T4D90 002:054.109 JLINK_ReadMemEx(0x00000008, 0x2 Bytes, Flags = 0x02000000)
T4D90 002:054.128   CPU_ReadMem(2 bytes @ 0x00000008)
T4D90 002:054.517   Data:  FD 51
T4D90 002:054.544 - 0.442ms returns 2 (0x2)
T4D90 002:054.568 JLINK_ReadMemEx(0x0000000A, 0x2 Bytes, Flags = 0x02000000)
T4D90 002:054.589   CPU_ReadMem(2 bytes @ 0x0000000A)
T4D90 002:054.951   Data:  E1 47
T4D90 002:054.977 - 0.417ms returns 2 (0x2)
T4D90 002:055.001 JLINK_ReadMemEx(0x0000000A, 0x2 Bytes, Flags = 0x02000000)
T4D90 002:055.021   CPU_ReadMem(2 bytes @ 0x0000000A)
T4D90 002:055.321   Data:  E1 47
T4D90 002:055.348 - 0.355ms returns 2 (0x2)
T4D90 002:055.370 JLINK_ReadMemEx(0x0000000C, 0x3C Bytes, Flags = 0x02000000)
T4D90 002:055.388   CPU_ReadMem(60 bytes @ 0x0000000C)
T4D90 002:055.963   Data:  D3 4A ED EE 12 18 BB 40 69 EE 07 62 2A 0E 2A 49 ...
T4D90 002:055.990 - 0.627ms returns 60 (0x3C)
T4D90 002:056.009 JLINK_ReadMemEx(0x0000000C, 0x2 Bytes, Flags = 0x02000000)
T4D90 002:056.028   CPU_ReadMem(2 bytes @ 0x0000000C)
T4D90 002:056.361   Data:  D3 4A
T4D90 002:056.389 - 0.387ms returns 2 (0x2)
T4D90 002:370.367 JLINK_HasError()
T4D90 002:370.400 JLINK_ReadReg(R0)
T4D90 002:370.876 - 0.491ms returns 0x00000000
T4D90 002:370.906 JLINK_ReadReg(R1)
T4D90 002:370.923 - 0.024ms returns 0x00000000
T4D90 002:370.941 JLINK_ReadReg(R2)
T4D90 002:370.957 - 0.023ms returns 0x00000000
T4D90 002:370.975 JLINK_ReadReg(R3)
T4D90 002:370.990 - 0.024ms returns 0x00000000
T4D90 002:371.010 JLINK_ReadReg(R4)
T4D90 002:371.025 - 0.022ms returns 0x00000000
T4D90 002:371.042 JLINK_ReadReg(R5)
T4D90 002:371.058 - 0.022ms returns 0x00000000
T4D90 002:371.075 JLINK_ReadReg(R6)
T4D90 002:371.090 - 0.022ms returns 0x00000000
T4D90 002:371.108 JLINK_ReadReg(R7)
T4D90 002:371.123 - 0.022ms returns 0x00000000
T4D90 002:371.141 JLINK_ReadReg(R8)
T4D90 002:371.164 - 0.030ms returns 0x00000000
T4D90 002:371.181 JLINK_ReadReg(R9)
T4D90 002:371.196 - 0.022ms returns 0x00000000
T4D90 002:371.214 JLINK_ReadReg(R10)
T4D90 002:371.229 - 0.022ms returns 0x00000000
T4D90 002:371.246 JLINK_ReadReg(R11)
T4D90 002:371.262 - 0.024ms returns 0x00000000
T4D90 002:371.281 JLINK_ReadReg(R12)
T4D90 002:371.296 - 0.022ms returns 0x00000000
T4D90 002:371.313 JLINK_ReadReg(R13 (SP))
T4D90 002:371.328 - 0.022ms returns 0x20201000
T4D90 002:371.346 JLINK_ReadReg(R14)
T4D90 002:371.361 - 0.022ms returns 0xFFFFFFFF
T4D90 002:371.378 JLINK_ReadReg(R15 (PC))
T4D90 002:371.394 - 0.022ms returns 0x00202090
T4D90 002:371.411 JLINK_ReadReg(XPSR)
T4D90 002:371.426 - 0.022ms returns 0x01000000
T4D90 002:371.444 JLINK_ReadReg(MSP)
T4D90 002:371.459 - 0.022ms returns 0x20201000
T4D90 002:371.476 JLINK_ReadReg(PSP)
T4D90 002:371.491 - 0.022ms returns 0x00000000
T4D90 002:371.509 JLINK_ReadReg(CFBP)
T4D90 002:371.524 - 0.023ms returns 0x00000000
T4D90 002:371.542 JLINK_ReadReg(FPSCR)
T4D90 002:374.679 - 3.225ms returns 0x00000000
T4D90 002:374.820 JLINK_ReadReg(FPS0)
T4D90 002:374.881 - 0.084ms returns 0x00000000
T4D90 002:374.937 JLINK_ReadReg(FPS1)
T4D90 002:374.977 - 0.050ms returns 0x00000000
T4D90 002:375.002 JLINK_ReadReg(FPS2)
T4D90 002:375.046 - 0.066ms returns 0x00000000
T4D90 002:375.100 JLINK_ReadReg(FPS3)
T4D90 002:375.144 - 0.054ms returns 0x00000000
T4D90 002:375.186 JLINK_ReadReg(FPS4)
T4D90 002:375.239 - 0.061ms returns 0x00000000
T4D90 002:375.261 JLINK_ReadReg(FPS5)
T4D90 002:375.293 - 0.039ms returns 0x00000000
T4D90 002:375.312 JLINK_ReadReg(FPS6)
T4D90 002:375.329 - 0.024ms returns 0x00000000
T4D90 002:375.350 JLINK_ReadReg(FPS7)
T4D90 002:375.388 - 0.046ms returns 0x00000000
T4D90 002:375.408 JLINK_ReadReg(FPS8)
T4D90 002:375.442 - 0.041ms returns 0x00000000
T4D90 002:375.484 JLINK_ReadReg(FPS9)
T4D90 002:375.502 - 0.043ms returns 0x00000000
T4D90 002:375.538 JLINK_ReadReg(FPS10)
T4D90 002:375.554 - 0.024ms returns 0x00000000
T4D90 002:375.592 JLINK_ReadReg(FPS11)
T4D90 002:375.625 - 0.040ms returns 0x00000000
T4D90 002:375.643 JLINK_ReadReg(FPS12)
T4D90 002:375.677 - 0.081ms returns 0x00000000
T4D90 002:375.749 JLINK_ReadReg(FPS13)
T4D90 002:375.765 - 0.023ms returns 0x00000000
T4D90 002:375.783 JLINK_ReadReg(FPS14)
T4D90 002:375.818 - 0.043ms returns 0x00000000
T4D90 002:375.854 JLINK_ReadReg(FPS15)
T4D90 002:375.870 - 0.024ms returns 0xFFFFFFFF
T4D90 002:375.889 JLINK_ReadReg(FPS16)
T4D90 002:375.920 - 0.039ms returns 0x00000000
T4D90 002:375.939 JLINK_ReadReg(FPS17)
T4D90 002:375.954 - 0.022ms returns 0x00000000
T4D90 002:375.972 JLINK_ReadReg(FPS18)
T4D90 002:375.987 - 0.022ms returns 0x00000000
T4D90 002:376.004 JLINK_ReadReg(FPS19)
T4D90 002:376.019 - 0.022ms returns 0x00000000
T4D90 002:376.037 JLINK_ReadReg(FPS20)
T4D90 002:376.052 - 0.022ms returns 0x00000000
T4D90 002:376.069 JLINK_ReadReg(FPS21)
T4D90 002:376.084 - 0.022ms returns 0x00000000
T4D90 002:376.128 JLINK_ReadReg(FPS22)
T4D90 002:376.147 - 0.027ms returns 0x00000000
T4D90 002:376.187 JLINK_ReadReg(FPS23)
T4D90 002:376.241 - 0.080ms returns 0x00000000
T4D90 002:376.278 JLINK_ReadReg(FPS24)
T4D90 002:376.293 - 0.023ms returns 0x00000000
T4D90 002:376.312 JLINK_ReadReg(FPS25)
T4D90 002:376.328 - 0.023ms returns 0x00000000
T4D90 002:376.347 JLINK_ReadReg(FPS26)
T4D90 002:376.380 - 0.058ms returns 0x00000000
T4D90 002:376.416 JLINK_ReadReg(FPS27)
T4D90 002:376.452 - 0.044ms returns 0x00000000
T4D90 002:376.471 JLINK_ReadReg(FPS28)
T4D90 002:376.486 - 0.023ms returns 0x00000000
T4D90 002:376.525 JLINK_ReadReg(FPS29)
T4D90 002:376.582 - 0.064ms returns 0x00000000
T4D90 002:376.600 JLINK_ReadReg(FPS30)
T4D90 002:376.615 - 0.022ms returns 0x00000000
T4D90 002:376.633 JLINK_ReadReg(FPS31)
T4D90 002:376.648 - 0.022ms returns 0xFFFFFFFF
T4D90 002:382.425 JLINK_WriteMemEx(0x400FC068, 0x00000004 Bytes, Flags = 0x02000000)
T4D90 002:382.456   Data:  FF FF FF FF
T4D90 002:382.494   CPU_WriteMem(4 bytes @ 0x400FC068)
T4D90 002:382.929 - 0.518ms returns 0x4
T4D90 002:382.959 JLINK_WriteMemEx(0x400FC06C, 0x00000004 Bytes, Flags = 0x02000000)
T4D90 002:382.975   Data:  FF FF FF FF
T4D90 002:383.014   CPU_WriteMem(4 bytes @ 0x400FC06C)
T4D90 002:383.455 - 0.522ms returns 0x4
T4D90 002:383.496 JLINK_WriteMemEx(0x400FC070, 0x00000004 Bytes, Flags = 0x02000000)
T4D90 002:383.511   Data:  FF FF FF FF
T4D90 002:383.537   CPU_WriteMem(4 bytes @ 0x400FC070)
T4D90 002:383.943 - 0.474ms returns 0x4
T4D90 002:383.984 JLINK_WriteMemEx(0x400FC074, 0x00000004 Bytes, Flags = 0x02000000)
T4D90 002:384.000   Data:  FF FF FF FF
T4D90 002:384.025   CPU_WriteMem(4 bytes @ 0x400FC074)
T4D90 002:384.406 - 0.433ms returns 0x4
T4D90 002:384.431 JLINK_WriteMemEx(0x400FC078, 0x00000004 Bytes, Flags = 0x02000000)
T4D90 002:384.447   Data:  FF FF FF FF
T4D90 002:384.474   CPU_WriteMem(4 bytes @ 0x400FC078)
T4D90 002:384.806 - 0.386ms returns 0x4
T4D90 002:384.832 JLINK_WriteMemEx(0x400FC07C, 0x00000004 Bytes, Flags = 0x02000000)
T4D90 002:384.861   Data:  FF FF FF FF
T4D90 002:384.887   CPU_WriteMem(4 bytes @ 0x400FC07C)
T4D90 002:385.186 - 0.365ms returns 0x4
T4D90 002:385.211 JLINK_WriteMemEx(0x400FC080, 0x00000004 Bytes, Flags = 0x02000000)
T4D90 002:385.226   Data:  FF FF FF FF
T4D90 002:385.253   CPU_WriteMem(4 bytes @ 0x400FC080)
T4D90 002:385.548 - 0.348ms returns 0x4
T4D90 002:385.574 JLINK_WriteMemEx(0x400FC01C, 0x00000004 Bytes, Flags = 0x02000000)
T4D90 002:385.590   Data:  01 00 90 04
T4D90 002:385.616   CPU_WriteMem(4 bytes @ 0x400FC01C)
T4D90 002:385.947 - 0.385ms returns 0x4
T4D90 002:385.973 JLINK_WriteMemEx(0x400D8030, 0x00000004 Bytes, Flags = 0x02000000)
T4D90 002:385.991   Data:  01 20 01 00
T4D90 002:386.017   CPU_WriteMem(4 bytes @ 0x400D8030)
T4D90 002:386.328 - 0.366ms returns 0x4
T4D90 002:386.354 JLINK_ReadMemEx(0x400D8030, 0x4 Bytes, Flags = 0x02000000)
T4D90 002:386.373   CPU_ReadMem(4 bytes @ 0x400D8030)
T4D90 002:386.657   Data:  01 20 01 80
T4D90 002:386.688 - 0.357ms returns 4 (0x4)
T4D90 002:386.853 JLINK_WriteMemEx(0x400D8030, 0x00000004 Bytes, Flags = 0x02000000)
T4D90 002:386.870   Data:  01 20 00 00
T4D90 002:386.895   CPU_WriteMem(4 bytes @ 0x400D8030)
T4D90 002:387.196 - 0.354ms returns 0x4
T4D90 002:387.223 JLINK_WriteMemEx(0x400D8100, 0x00000004 Bytes, Flags = 0x02000000)
T4D90 002:387.238   Data:  00 00 1D 00
T4D90 002:387.265   CPU_WriteMem(4 bytes @ 0x400D8100)
T4D90 002:387.537 - 0.326ms returns 0x4
T4D90 002:387.563 JLINK_WriteMemEx(0x400FC014, 0x00000004 Bytes, Flags = 0x02000000)
T4D90 002:387.579   Data:  40 0D 01 00
T4D90 002:387.606   CPU_WriteMem(4 bytes @ 0x400FC014)
T4D90 002:387.873 - 0.321ms returns 0x4
T4D90 002:387.909 JLINK_WriteMemEx(0x401F8014, 0x00000004 Bytes, Flags = 0x02000000)
T4D90 002:387.926   Data:  00 00 00 00
T4D90 002:387.953   CPU_WriteMem(4 bytes @ 0x401F8014)
T4D90 002:388.283 - 0.400ms returns 0x4
T4D90 002:388.323 JLINK_WriteMemEx(0x401F8018, 0x00000004 Bytes, Flags = 0x02000000)
T4D90 002:388.341   Data:  00 00 00 00
T4D90 002:388.369   CPU_WriteMem(4 bytes @ 0x401F8018)
T4D90 002:388.652 - 0.356ms returns 0x4
T4D90 002:388.713 JLINK_WriteMemEx(0x401F801C, 0x00000004 Bytes, Flags = 0x02000000)
T4D90 002:388.729   Data:  00 00 00 00
T4D90 002:388.771   CPU_WriteMem(4 bytes @ 0x401F801C)
T4D90 002:389.080 - 0.391ms returns 0x4
T4D90 002:389.119 JLINK_WriteMemEx(0x401F8020, 0x00000004 Bytes, Flags = 0x02000000)
T4D90 002:389.134   Data:  00 00 00 00
T4D90 002:389.160   CPU_WriteMem(4 bytes @ 0x401F8020)
T4D90 002:389.449 - 0.355ms returns 0x4
T4D90 002:389.488 JLINK_WriteMemEx(0x401F8024, 0x00000004 Bytes, Flags = 0x02000000)
T4D90 002:389.504   Data:  00 00 00 00
T4D90 002:389.529   CPU_WriteMem(4 bytes @ 0x401F8024)
T4D90 002:389.851 - 0.388ms returns 0x4
T4D90 002:389.905 JLINK_WriteMemEx(0x401F8028, 0x00000004 Bytes, Flags = 0x02000000)
T4D90 002:389.921   Data:  00 00 00 00
T4D90 002:389.947   CPU_WriteMem(4 bytes @ 0x401F8028)
T4D90 002:390.269 - 0.394ms returns 0x4
T4D90 002:390.319 JLINK_WriteMemEx(0x401F802C, 0x00000004 Bytes, Flags = 0x02000000)
T4D90 002:390.340   Data:  00 00 00 00
T4D90 002:390.392   CPU_WriteMem(4 bytes @ 0x401F802C)
T4D90 002:390.670 - 0.378ms returns 0x4
T4D90 002:390.713 JLINK_WriteMemEx(0x401F8030, 0x00000004 Bytes, Flags = 0x02000000)
T4D90 002:390.729   Data:  00 00 00 00
T4D90 002:390.756   CPU_WriteMem(4 bytes @ 0x401F8030)
T4D90 002:391.095 - 0.408ms returns 0x4
T4D90 002:391.135 JLINK_WriteMemEx(0x401F8034, 0x00000004 Bytes, Flags = 0x02000000)
T4D90 002:391.151   Data:  00 00 00 00
T4D90 002:391.177   CPU_WriteMem(4 bytes @ 0x401F8034)
T4D90 002:391.479 - 0.356ms returns 0x4
T4D90 002:391.505 JLINK_WriteMemEx(0x401F8038, 0x00000004 Bytes, Flags = 0x02000000)
T4D90 002:391.521   Data:  00 00 00 00
T4D90 002:391.547   CPU_WriteMem(4 bytes @ 0x401F8038)
T4D90 002:391.823 - 0.330ms returns 0x4
T4D90 002:391.849 JLINK_WriteMemEx(0x401F803C, 0x00000004 Bytes, Flags = 0x02000000)
T4D90 002:391.866   Data:  00 00 00 00
T4D90 002:391.892   CPU_WriteMem(4 bytes @ 0x401F803C)
T4D90 002:392.159 - 0.321ms returns 0x4
T4D90 002:392.185 JLINK_WriteMemEx(0x401F8040, 0x00000004 Bytes, Flags = 0x02000000)
T4D90 002:392.201   Data:  00 00 00 00
T4D90 002:392.227   CPU_WriteMem(4 bytes @ 0x401F8040)
T4D90 002:392.513 - 0.345ms returns 0x4
T4D90 002:392.548 JLINK_WriteMemEx(0x401F8044, 0x00000004 Bytes, Flags = 0x02000000)
T4D90 002:392.582   Data:  00 00 00 00
T4D90 002:392.612   CPU_WriteMem(4 bytes @ 0x401F8044)
T4D90 002:392.877 - 0.344ms returns 0x4
T4D90 002:392.909 JLINK_WriteMemEx(0x401F8048, 0x00000004 Bytes, Flags = 0x02000000)
T4D90 002:392.926   Data:  00 00 00 00
T4D90 002:392.972   CPU_WriteMem(4 bytes @ 0x401F8048)
T4D90 002:393.250 - 0.353ms returns 0x4
T4D90 002:393.277 JLINK_WriteMemEx(0x401F804C, 0x00000004 Bytes, Flags = 0x02000000)
T4D90 002:393.296   Data:  00 00 00 00
T4D90 002:393.323   CPU_WriteMem(4 bytes @ 0x401F804C)
T4D90 002:393.591 - 0.326ms returns 0x4
T4D90 002:393.618 JLINK_WriteMemEx(0x401F8050, 0x00000004 Bytes, Flags = 0x02000000)
T4D90 002:393.634   Data:  00 00 00 00
T4D90 002:393.662   CPU_WriteMem(4 bytes @ 0x401F8050)
T4D90 002:393.948 - 0.342ms returns 0x4
T4D90 002:393.977 JLINK_WriteMemEx(0x401F8054, 0x00000004 Bytes, Flags = 0x02000000)
T4D90 002:393.993   Data:  00 00 00 00
T4D90 002:394.019   CPU_WriteMem(4 bytes @ 0x401F8054)
T4D90 002:394.292 - 0.327ms returns 0x4
T4D90 002:394.318 JLINK_WriteMemEx(0x401F8058, 0x00000004 Bytes, Flags = 0x02000000)
T4D90 002:394.334   Data:  00 00 00 00
T4D90 002:394.361   CPU_WriteMem(4 bytes @ 0x401F8058)
T4D90 002:394.618 - 0.311ms returns 0x4
T4D90 002:394.644 JLINK_WriteMemEx(0x401F805C, 0x00000004 Bytes, Flags = 0x02000000)
T4D90 002:394.663   Data:  00 00 00 00
T4D90 002:394.709   CPU_WriteMem(4 bytes @ 0x401F805C)
T4D90 002:394.998 - 0.366ms returns 0x4
T4D90 002:395.024 JLINK_WriteMemEx(0x401F8060, 0x00000004 Bytes, Flags = 0x02000000)
T4D90 002:395.040   Data:  00 00 00 00
T4D90 002:395.066   CPU_WriteMem(4 bytes @ 0x401F8060)
T4D90 002:395.344 - 0.332ms returns 0x4
T4D90 002:395.371 JLINK_WriteMemEx(0x401F8064, 0x00000004 Bytes, Flags = 0x02000000)
T4D90 002:395.387   Data:  00 00 00 00
T4D90 002:395.413   CPU_WriteMem(4 bytes @ 0x401F8064)
T4D90 002:395.673 - 0.314ms returns 0x4
T4D90 002:395.700 JLINK_WriteMemEx(0x401F8068, 0x00000004 Bytes, Flags = 0x02000000)
T4D90 002:395.716   Data:  00 00 00 00
T4D90 002:395.742   CPU_WriteMem(4 bytes @ 0x401F8068)
T4D90 002:396.003 - 0.315ms returns 0x4
T4D90 002:396.029 JLINK_WriteMemEx(0x401F806C, 0x00000004 Bytes, Flags = 0x02000000)
T4D90 002:396.045   Data:  00 00 00 00
T4D90 002:396.072   CPU_WriteMem(4 bytes @ 0x401F806C)
T4D90 002:396.346 - 0.329ms returns 0x4
T4D90 002:396.373 JLINK_WriteMemEx(0x401F8070, 0x00000004 Bytes, Flags = 0x02000000)
T4D90 002:396.388   Data:  00 00 00 00
T4D90 002:396.414   CPU_WriteMem(4 bytes @ 0x401F8070)
T4D90 002:396.696 - 0.352ms returns 0x4
T4D90 002:396.739 JLINK_WriteMemEx(0x401F8074, 0x00000004 Bytes, Flags = 0x02000000)
T4D90 002:396.755   Data:  00 00 00 00
T4D90 002:396.781   CPU_WriteMem(4 bytes @ 0x401F8074)
T4D90 002:397.048 - 0.320ms returns 0x4
T4D90 002:397.074 JLINK_WriteMemEx(0x401F8078, 0x00000004 Bytes, Flags = 0x02000000)
T4D90 002:397.090   Data:  00 00 00 00
T4D90 002:397.116   CPU_WriteMem(4 bytes @ 0x401F8078)
T4D90 002:397.393 - 0.331ms returns 0x4
T4D90 002:397.420 JLINK_WriteMemEx(0x401F807C, 0x00000004 Bytes, Flags = 0x02000000)
T4D90 002:397.435   Data:  00 00 00 00
T4D90 002:397.461   CPU_WriteMem(4 bytes @ 0x401F807C)
T4D90 002:397.758 - 0.350ms returns 0x4
T4D90 002:397.785 JLINK_WriteMemEx(0x401F8080, 0x00000004 Bytes, Flags = 0x02000000)
T4D90 002:397.815   Data:  00 00 00 00
T4D90 002:397.860   CPU_WriteMem(4 bytes @ 0x401F8080)
T4D90 002:398.128 - 0.354ms returns 0x4
T4D90 002:398.154 JLINK_WriteMemEx(0x401F8084, 0x00000004 Bytes, Flags = 0x02000000)
T4D90 002:398.169   Data:  00 00 00 00
T4D90 002:398.195   CPU_WriteMem(4 bytes @ 0x401F8084)
T4D90 002:398.449 - 0.307ms returns 0x4
T4D90 002:398.475 JLINK_WriteMemEx(0x401F8088, 0x00000004 Bytes, Flags = 0x02000000)
T4D90 002:398.491   Data:  00 00 00 00
T4D90 002:398.518   CPU_WriteMem(4 bytes @ 0x401F8088)
T4D90 002:398.776 - 0.312ms returns 0x4
T4D90 002:398.802 JLINK_WriteMemEx(0x401F808C, 0x00000004 Bytes, Flags = 0x02000000)
T4D90 002:398.818   Data:  00 00 00 00
T4D90 002:398.844   CPU_WriteMem(4 bytes @ 0x401F808C)
T4D90 002:399.105 - 0.315ms returns 0x4
T4D90 002:399.132 JLINK_WriteMemEx(0x401F8090, 0x00000004 Bytes, Flags = 0x02000000)
T4D90 002:399.148   Data:  00 00 00 00
T4D90 002:399.176   CPU_WriteMem(4 bytes @ 0x401F8090)
T4D90 002:399.449 - 0.328ms returns 0x4
T4D90 002:399.475 JLINK_WriteMemEx(0x401F8094, 0x00000004 Bytes, Flags = 0x02000000)
T4D90 002:399.491   Data:  00 00 00 00
T4D90 002:399.518   CPU_WriteMem(4 bytes @ 0x401F8094)
T4D90 002:399.804 - 0.340ms returns 0x4
T4D90 002:399.830 JLINK_WriteMemEx(0x401F8098, 0x00000004 Bytes, Flags = 0x02000000)
T4D90 002:399.849   Data:  00 00 00 00
T4D90 002:399.875   CPU_WriteMem(4 bytes @ 0x401F8098)
T4D90 002:400.181 - 0.362ms returns 0x4
T4D90 002:400.207 JLINK_WriteMemEx(0x401F809C, 0x00000004 Bytes, Flags = 0x02000000)
T4D90 002:400.223   Data:  00 00 00 00
T4D90 002:400.249   CPU_WriteMem(4 bytes @ 0x401F809C)
T4D90 002:400.571 - 0.375ms returns 0x4
T4D90 002:400.599 JLINK_WriteMemEx(0x401F80A0, 0x00000004 Bytes, Flags = 0x02000000)
T4D90 002:400.615   Data:  00 00 00 00
T4D90 002:400.641   CPU_WriteMem(4 bytes @ 0x401F80A0)
T4D90 002:400.971 - 0.384ms returns 0x4
T4D90 002:400.998 JLINK_WriteMemEx(0x401F80A4, 0x00000004 Bytes, Flags = 0x02000000)
T4D90 002:401.014   Data:  00 00 00 00
T4D90 002:401.040   CPU_WriteMem(4 bytes @ 0x401F80A4)
T4D90 002:401.328 - 0.342ms returns 0x4
T4D90 002:401.354 JLINK_WriteMemEx(0x401F80A8, 0x00000004 Bytes, Flags = 0x02000000)
T4D90 002:401.370   Data:  00 00 00 00
T4D90 002:401.396   CPU_WriteMem(4 bytes @ 0x401F80A8)
T4D90 002:401.695 - 0.353ms returns 0x4
T4D90 002:401.721 JLINK_WriteMemEx(0x401F80AC, 0x00000004 Bytes, Flags = 0x02000000)
T4D90 002:401.782   Data:  00 00 00 00
T4D90 002:401.812   CPU_WriteMem(4 bytes @ 0x401F80AC)
T4D90 002:402.072 - 0.362ms returns 0x4
T4D90 002:402.099 JLINK_WriteMemEx(0x401F80B0, 0x00000004 Bytes, Flags = 0x02000000)
T4D90 002:402.114   Data:  10 00 00 00
T4D90 002:402.141   CPU_WriteMem(4 bytes @ 0x401F80B0)
T4D90 002:402.451 - 0.364ms returns 0x4
T4D90 002:402.477 JLINK_WriteMemEx(0x401F80B4, 0x00000004 Bytes, Flags = 0x02000000)
T4D90 002:402.493   Data:  00 00 00 00
T4D90 002:402.520   CPU_WriteMem(4 bytes @ 0x401F80B4)
T4D90 002:402.819 - 0.354ms returns 0x4
T4D90 002:402.846 JLINK_WriteMemEx(0x401F80B8, 0x00000004 Bytes, Flags = 0x02000000)
T4D90 002:402.862   Data:  00 00 00 00
T4D90 002:402.888   CPU_WriteMem(4 bytes @ 0x401F80B8)
T4D90 002:403.180 - 0.345ms returns 0x4
T4D90 002:403.206 JLINK_WriteMemEx(0x401F8204, 0x00000004 Bytes, Flags = 0x02000000)
T4D90 002:403.222   Data:  F9 10 01 00
T4D90 002:403.249   CPU_WriteMem(4 bytes @ 0x401F8204)
T4D90 002:403.524 - 0.330ms returns 0x4
T4D90 002:403.550 JLINK_WriteMemEx(0x401F8208, 0x00000004 Bytes, Flags = 0x02000000)
T4D90 002:403.565   Data:  F9 10 01 00
T4D90 002:403.592   CPU_WriteMem(4 bytes @ 0x401F8208)
T4D90 002:403.867 - 0.329ms returns 0x4
T4D90 002:403.893 JLINK_WriteMemEx(0x401F820C, 0x00000004 Bytes, Flags = 0x02000000)
T4D90 002:403.909   Data:  F9 10 01 00
T4D90 002:403.937   CPU_WriteMem(4 bytes @ 0x401F820C)
T4D90 002:404.195 - 0.313ms returns 0x4
T4D90 002:404.221 JLINK_WriteMemEx(0x401F8210, 0x00000004 Bytes, Flags = 0x02000000)
T4D90 002:404.237   Data:  F9 10 01 00
T4D90 002:404.263   CPU_WriteMem(4 bytes @ 0x401F8210)
T4D90 002:404.576 - 0.367ms returns 0x4
T4D90 002:404.602 JLINK_WriteMemEx(0x401F8214, 0x00000004 Bytes, Flags = 0x02000000)
T4D90 002:404.619   Data:  F9 10 01 00
T4D90 002:404.647   CPU_WriteMem(4 bytes @ 0x401F8214)
T4D90 002:404.946 - 0.355ms returns 0x4
T4D90 002:404.972 JLINK_WriteMemEx(0x401F8218, 0x00000004 Bytes, Flags = 0x02000000)
T4D90 002:404.988   Data:  F9 10 01 00
T4D90 002:405.014   CPU_WriteMem(4 bytes @ 0x401F8218)
T4D90 002:405.319 - 0.359ms returns 0x4
T4D90 002:405.345 JLINK_WriteMemEx(0x401F821C, 0x00000004 Bytes, Flags = 0x02000000)
T4D90 002:405.364   Data:  F9 10 01 00
T4D90 002:405.390   CPU_WriteMem(4 bytes @ 0x401F821C)
T4D90 002:405.697 - 0.363ms returns 0x4
T4D90 002:405.759 JLINK_WriteMemEx(0x401F8220, 0x00000004 Bytes, Flags = 0x02000000)
T4D90 002:405.775   Data:  F9 10 01 00
T4D90 002:405.801   CPU_WriteMem(4 bytes @ 0x401F8220)
T4D90 002:406.071 - 0.326ms returns 0x4
T4D90 002:406.100 JLINK_WriteMemEx(0x401F8224, 0x00000004 Bytes, Flags = 0x02000000)
T4D90 002:406.115   Data:  F9 10 01 00
T4D90 002:406.141   CPU_WriteMem(4 bytes @ 0x401F8224)
T4D90 002:406.449 - 0.361ms returns 0x4
T4D90 002:406.475 JLINK_WriteMemEx(0x401F8228, 0x00000004 Bytes, Flags = 0x02000000)
T4D90 002:406.491   Data:  F9 10 01 00
T4D90 002:406.517   CPU_WriteMem(4 bytes @ 0x401F8228)
T4D90 002:406.857 - 0.397ms returns 0x4
T4D90 002:406.887 JLINK_WriteMemEx(0x401F822C, 0x00000004 Bytes, Flags = 0x02000000)
T4D90 002:406.904   Data:  F9 10 01 00
T4D90 002:406.932   CPU_WriteMem(4 bytes @ 0x401F822C)
T4D90 002:407.277 - 0.404ms returns 0x4
T4D90 002:407.307 JLINK_WriteMemEx(0x401F8230, 0x00000004 Bytes, Flags = 0x02000000)
T4D90 002:407.324   Data:  F9 10 01 00
T4D90 002:407.351   CPU_WriteMem(4 bytes @ 0x401F8230)
T4D90 002:407.660 - 0.367ms returns 0x4
T4D90 002:407.692 JLINK_WriteMemEx(0x401F8234, 0x00000004 Bytes, Flags = 0x02000000)
T4D90 002:407.709   Data:  F9 10 01 00
T4D90 002:407.737   CPU_WriteMem(4 bytes @ 0x401F8234)
T4D90 002:408.025 - 0.347ms returns 0x4
T4D90 002:408.055 JLINK_WriteMemEx(0x401F8238, 0x00000004 Bytes, Flags = 0x02000000)
T4D90 002:408.072   Data:  F9 10 01 00
T4D90 002:408.099   CPU_WriteMem(4 bytes @ 0x401F8238)
T4D90 002:408.408 - 0.366ms returns 0x4
T4D90 002:408.438 JLINK_WriteMemEx(0x401F823C, 0x00000004 Bytes, Flags = 0x02000000)
T4D90 002:408.454   Data:  F9 10 01 00
T4D90 002:408.486   CPU_WriteMem(4 bytes @ 0x401F823C)
T4D90 002:408.818 - 0.411ms returns 0x4
T4D90 002:408.864 JLINK_WriteMemEx(0x401F8240, 0x00000004 Bytes, Flags = 0x02000000)
T4D90 002:408.913   Data:  F9 10 01 00
T4D90 002:408.975   CPU_WriteMem(4 bytes @ 0x401F8240)
T4D90 002:409.404 - 0.570ms returns 0x4
T4D90 002:409.452 JLINK_WriteMemEx(0x401F8244, 0x00000004 Bytes, Flags = 0x02000000)
T4D90 002:409.509   Data:  F9 10 01 00
T4D90 002:409.537   CPU_WriteMem(4 bytes @ 0x401F8244)
T4D90 002:409.934 - 0.497ms returns 0x4
T4D90 002:409.965 JLINK_WriteMemEx(0x401F8248, 0x00000004 Bytes, Flags = 0x02000000)
T4D90 002:409.982   Data:  F9 10 01 00
T4D90 002:410.010   CPU_WriteMem(4 bytes @ 0x401F8248)
T4D90 002:410.357 - 0.406ms returns 0x4
T4D90 002:410.388 JLINK_WriteMemEx(0x401F824C, 0x00000004 Bytes, Flags = 0x02000000)
T4D90 002:410.405   Data:  F9 10 01 00
T4D90 002:410.432   CPU_WriteMem(4 bytes @ 0x401F824C)
T4D90 002:410.761 - 0.407ms returns 0x4
T4D90 002:410.825 JLINK_WriteMemEx(0x401F8250, 0x00000004 Bytes, Flags = 0x02000000)
T4D90 002:410.842   Data:  F9 10 01 00
T4D90 002:410.872   CPU_WriteMem(4 bytes @ 0x401F8250)
T4D90 002:411.196 - 0.385ms returns 0x4
T4D90 002:411.226 JLINK_WriteMemEx(0x401F8254, 0x00000004 Bytes, Flags = 0x02000000)
T4D90 002:411.242   Data:  F9 10 01 00
T4D90 002:411.270   CPU_WriteMem(4 bytes @ 0x401F8254)
T4D90 002:411.606 - 0.394ms returns 0x4
T4D90 002:411.636 JLINK_WriteMemEx(0x401F8258, 0x00000004 Bytes, Flags = 0x02000000)
T4D90 002:411.655   Data:  F9 10 01 00
T4D90 002:411.684   CPU_WriteMem(4 bytes @ 0x401F8258)
T4D90 002:412.023 - 0.401ms returns 0x4
T4D90 002:412.053 JLINK_WriteMemEx(0x401F825C, 0x00000004 Bytes, Flags = 0x02000000)
T4D90 002:412.084   Data:  F9 10 01 00
T4D90 002:412.111   CPU_WriteMem(4 bytes @ 0x401F825C)
T4D90 002:412.410 - 0.371ms returns 0x4
T4D90 002:412.441 JLINK_WriteMemEx(0x401F8260, 0x00000004 Bytes, Flags = 0x02000000)
T4D90 002:412.457   Data:  F9 10 01 00
T4D90 002:412.485   CPU_WriteMem(4 bytes @ 0x401F8260)
T4D90 002:412.834 - 0.407ms returns 0x4
T4D90 002:412.863 JLINK_WriteMemEx(0x401F8264, 0x00000004 Bytes, Flags = 0x02000000)
T4D90 002:412.880   Data:  F9 10 01 00
T4D90 002:412.908   CPU_WriteMem(4 bytes @ 0x401F8264)
T4D90 002:413.187 - 0.338ms returns 0x4
T4D90 002:413.218 JLINK_WriteMemEx(0x401F8268, 0x00000004 Bytes, Flags = 0x02000000)
T4D90 002:413.234   Data:  F9 10 01 00
T4D90 002:413.262   CPU_WriteMem(4 bytes @ 0x401F8268)
T4D90 002:413.563 - 0.359ms returns 0x4
T4D90 002:413.593 JLINK_WriteMemEx(0x401F826C, 0x00000004 Bytes, Flags = 0x02000000)
T4D90 002:413.610   Data:  F9 10 01 00
T4D90 002:413.638   CPU_WriteMem(4 bytes @ 0x401F826C)
T4D90 002:413.928 - 0.349ms returns 0x4
T4D90 002:413.958 JLINK_WriteMemEx(0x401F8270, 0x00000004 Bytes, Flags = 0x02000000)
T4D90 002:413.975   Data:  F9 10 01 00
T4D90 002:414.003   CPU_WriteMem(4 bytes @ 0x401F8270)
T4D90 002:414.309 - 0.364ms returns 0x4
T4D90 002:414.339 JLINK_WriteMemEx(0x401F8274, 0x00000004 Bytes, Flags = 0x02000000)
T4D90 002:414.356   Data:  F9 10 01 00
T4D90 002:414.383   CPU_WriteMem(4 bytes @ 0x401F8274)
T4D90 002:414.703 - 0.397ms returns 0x4
T4D90 002:414.768 JLINK_WriteMemEx(0x401F8278, 0x00000004 Bytes, Flags = 0x02000000)
T4D90 002:414.785   Data:  F9 10 01 00
T4D90 002:414.813   CPU_WriteMem(4 bytes @ 0x401F8278)
T4D90 002:415.108 - 0.354ms returns 0x4
T4D90 002:415.138 JLINK_WriteMemEx(0x401F827C, 0x00000004 Bytes, Flags = 0x02000000)
T4D90 002:415.155   Data:  F9 10 01 00
T4D90 002:415.185   CPU_WriteMem(4 bytes @ 0x401F827C)
T4D90 002:415.483 - 0.359ms returns 0x4
T4D90 002:415.513 JLINK_WriteMemEx(0x401F8280, 0x00000004 Bytes, Flags = 0x02000000)
T4D90 002:415.530   Data:  F9 10 01 00
T4D90 002:415.557   CPU_WriteMem(4 bytes @ 0x401F8280)
T4D90 002:415.868 - 0.369ms returns 0x4
T4D90 002:415.898 JLINK_WriteMemEx(0x401F8284, 0x00000004 Bytes, Flags = 0x02000000)
T4D90 002:415.915   Data:  F9 10 01 00
T4D90 002:415.945   CPU_WriteMem(4 bytes @ 0x401F8284)
T4D90 002:416.281 - 0.399ms returns 0x4
T4D90 002:416.315 JLINK_WriteMemEx(0x401F8288, 0x00000004 Bytes, Flags = 0x02000000)
T4D90 002:416.332   Data:  F9 10 01 00
T4D90 002:416.359   CPU_WriteMem(4 bytes @ 0x401F8288)
T4D90 002:416.658 - 0.358ms returns 0x4
T4D90 002:416.709 JLINK_WriteMemEx(0x401F828C, 0x00000004 Bytes, Flags = 0x02000000)
T4D90 002:416.728   Data:  F9 10 01 00
T4D90 002:416.773   CPU_WriteMem(4 bytes @ 0x401F828C)
T4D90 002:417.099 - 0.402ms returns 0x4
T4D90 002:417.126 JLINK_WriteMemEx(0x401F8290, 0x00000004 Bytes, Flags = 0x02000000)
T4D90 002:417.142   Data:  F9 10 01 00
T4D90 002:417.168   CPU_WriteMem(4 bytes @ 0x401F8290)
T4D90 002:417.476 - 0.365ms returns 0x4
T4D90 002:417.505 JLINK_WriteMemEx(0x401F8294, 0x00000004 Bytes, Flags = 0x02000000)
T4D90 002:417.520   Data:  F9 10 01 00
T4D90 002:417.547   CPU_WriteMem(4 bytes @ 0x401F8294)
T4D90 002:417.878 - 0.385ms returns 0x4
T4D90 002:417.905 JLINK_WriteMemEx(0x401F8298, 0x00000004 Bytes, Flags = 0x02000000)
T4D90 002:417.921   Data:  F9 10 01 00
T4D90 002:417.947   CPU_WriteMem(4 bytes @ 0x401F8298)
T4D90 002:418.281 - 0.388ms returns 0x4
T4D90 002:418.308 JLINK_WriteMemEx(0x401F829C, 0x00000004 Bytes, Flags = 0x02000000)
T4D90 002:418.324   Data:  F9 10 01 00
T4D90 002:418.350   CPU_WriteMem(4 bytes @ 0x401F829C)
T4D90 002:418.677 - 0.400ms returns 0x4
T4D90 002:418.723 JLINK_WriteMemEx(0x401F82A0, 0x00000004 Bytes, Flags = 0x02000000)
T4D90 002:418.755   Data:  F9 10 01 00
T4D90 002:418.782   CPU_WriteMem(4 bytes @ 0x401F82A0)
T4D90 002:419.103 - 0.392ms returns 0x4
T4D90 002:419.129 JLINK_WriteMemEx(0x401F82A4, 0x00000004 Bytes, Flags = 0x02000000)
T4D90 002:419.145   Data:  F9 10 01 00
T4D90 002:419.171   CPU_WriteMem(4 bytes @ 0x401F82A4)
T4D90 002:419.498 - 0.380ms returns 0x4
T4D90 002:419.524 JLINK_WriteMemEx(0x401F82A8, 0x00000004 Bytes, Flags = 0x02000000)
T4D90 002:419.540   Data:  F9 10 01 00
T4D90 002:419.567   CPU_WriteMem(4 bytes @ 0x401F82A8)
T4D90 002:419.871 - 0.359ms returns 0x4
T4D90 002:419.897 JLINK_WriteMemEx(0x402F0000, 0x00000004 Bytes, Flags = 0x02000000)
T4D90 002:419.913   Data:  04 00 00 10
T4D90 002:419.940   CPU_WriteMem(4 bytes @ 0x402F0000)
T4D90 002:420.274 - 0.388ms returns 0x4
T4D90 002:420.301 JLINK_WriteMemEx(0x402F0008, 0x00000004 Bytes, Flags = 0x02000000)
T4D90 002:420.316   Data:  24 05 03 00
T4D90 002:420.343   CPU_WriteMem(4 bytes @ 0x402F0008)
T4D90 002:420.673 - 0.402ms returns 0x4
T4D90 002:420.731 JLINK_WriteMemEx(0x402F000C, 0x00000004 Bytes, Flags = 0x02000000)
T4D90 002:420.764   Data:  24 05 03 06
T4D90 002:420.805   CPU_WriteMem(4 bytes @ 0x402F000C)
T4D90 002:421.124 - 0.405ms returns 0x4
T4D90 002:421.151 JLINK_WriteMemEx(0x402F0010, 0x00000004 Bytes, Flags = 0x02000000)
T4D90 002:421.166   Data:  1B 00 00 80
T4D90 002:421.192   CPU_WriteMem(4 bytes @ 0x402F0010)
T4D90 002:422.159 - 1.020ms returns 0x4
T4D90 002:422.185 JLINK_WriteMemEx(0x402F0040, 0x00000004 Bytes, Flags = 0x02000000)
T4D90 002:422.201   Data:  31 0F 00 00
T4D90 002:422.227   CPU_WriteMem(4 bytes @ 0x402F0040)
T4D90 002:422.496 - 0.322ms returns 0x4
T4D90 002:422.522 JLINK_WriteMemEx(0x402F0044, 0x00000004 Bytes, Flags = 0x02000000)
T4D90 002:422.540   Data:  22 29 65 00
T4D90 002:422.566   CPU_WriteMem(4 bytes @ 0x402F0044)
T4D90 002:422.894 - 0.384ms returns 0x4
T4D90 002:422.921 JLINK_WriteMemEx(0x402F0048, 0x00000004 Bytes, Flags = 0x02000000)
T4D90 002:422.937   Data:  20 09 01 00
T4D90 002:422.963   CPU_WriteMem(4 bytes @ 0x402F0048)
T4D90 002:423.271 - 0.364ms returns 0x4
T4D90 002:423.299 JLINK_WriteMemEx(0x402F004C, 0x00000004 Bytes, Flags = 0x02000000)
T4D90 002:423.315   Data:  08 0A 21 50
T4D90 002:423.341   CPU_WriteMem(4 bytes @ 0x402F004C)
T4D90 002:423.674 - 0.386ms returns 0x4
T4D90 002:423.700 JLINK_WriteMemEx(0x402F0090, 0x00000004 Bytes, Flags = 0x02000000)
T4D90 002:423.716   Data:  00 00 00 80
T4D90 002:423.742   CPU_WriteMem(4 bytes @ 0x402F0090)
T4D90 002:424.070 - 0.382ms returns 0x4
T4D90 002:424.096 JLINK_WriteMemEx(0x402F0094, 0x00000004 Bytes, Flags = 0x02000000)
T4D90 002:424.114   Data:  02 00 00 00
T4D90 002:424.143   CPU_WriteMem(4 bytes @ 0x402F0094)
T4D90 002:424.494 - 0.409ms returns 0x4
T4D90 002:424.519 JLINK_WriteMemEx(0x402F0098, 0x00000004 Bytes, Flags = 0x02000000)
T4D90 002:424.534   Data:  00 00 00 00
T4D90 002:424.560   CPU_WriteMem(4 bytes @ 0x402F0098)
T4D90 002:424.923 - 0.416ms returns 0x4
T4D90 002:424.949 JLINK_WriteMemEx(0x402F009C, 0x00000004 Bytes, Flags = 0x02000000)
T4D90 002:425.005   Data:  0F 00 5A A5
T4D90 002:425.104   CPU_WriteMem(4 bytes @ 0x402F009C)
T4D90 002:425.882 - 0.965ms returns 0x4
T4D90 002:425.954 JLINK_ReadMemEx(0x402F003C, 0x4 Bytes, Flags = 0x02000000)
T4D90 002:425.975   CPU_ReadMem(4 bytes @ 0x402F003C)
T4D90 002:426.629   Data:  09 00 00 00
T4D90 002:426.694 - 0.748ms returns 4 (0x4)
T4D90 002:426.845 JLINK_WriteMemEx(0x402F003C, 0x00000004 Bytes, Flags = 0x02000000)
T4D90 002:426.862   Data:  03 00 00 00
T4D90 002:426.889   CPU_WriteMem(4 bytes @ 0x402F003C)
T4D90 002:427.211 - 0.377ms returns 0x4
T4D90 002:427.237 JLINK_WriteMemEx(0x402F009C, 0x00000004 Bytes, Flags = 0x02000000)
T4D90 002:427.252   Data:  0C 00 5A A5
T4D90 002:427.278   CPU_WriteMem(4 bytes @ 0x402F009C)
T4D90 002:427.620 - 0.394ms returns 0x4
T4D90 002:427.647 JLINK_ReadMemEx(0x402F003C, 0x4 Bytes, Flags = 0x02000000)
T4D90 002:427.666   CPU_ReadMem(4 bytes @ 0x402F003C)
T4D90 002:427.994   Data:  09 00 00 00
T4D90 002:428.021 - 0.380ms returns 4 (0x4)
T4D90 002:428.042 JLINK_WriteMemEx(0x402F003C, 0x00000004 Bytes, Flags = 0x02000000)
T4D90 002:428.057   Data:  03 00 00 00
T4D90 002:428.083   CPU_WriteMem(4 bytes @ 0x402F003C)
T4D90 002:428.438 - 0.407ms returns 0x4
T4D90 002:428.463 JLINK_WriteMemEx(0x402F009C, 0x00000004 Bytes, Flags = 0x02000000)
T4D90 002:428.479   Data:  0C 00 5A A5
T4D90 002:428.504   CPU_WriteMem(4 bytes @ 0x402F009C)
T4D90 002:428.851 - 0.398ms returns 0x4
T4D90 002:428.876 JLINK_ReadMemEx(0x402F003C, 0x4 Bytes, Flags = 0x02000000)
T4D90 002:428.895   CPU_ReadMem(4 bytes @ 0x402F003C)
T4D90 002:429.233   Data:  09 00 00 00
T4D90 002:429.260 - 0.391ms returns 4 (0x4)
T4D90 002:429.281 JLINK_WriteMemEx(0x402F003C, 0x00000004 Bytes, Flags = 0x02000000)
T4D90 002:429.297   Data:  03 00 00 00
T4D90 002:429.322   CPU_WriteMem(4 bytes @ 0x402F003C)
T4D90 002:429.643 - 0.388ms returns 0x4
T4D90 002:429.721 JLINK_WriteMemEx(0x402F00A0, 0x00000004 Bytes, Flags = 0x02000000)
T4D90 002:429.756   Data:  33 00 00 00
T4D90 002:429.782   CPU_WriteMem(4 bytes @ 0x402F00A0)
T4D90 002:430.139 - 0.429ms returns 0x4
T4D90 002:476.386 JLINK_WriteMemEx(0x402F009C, 0x00000004 Bytes, Flags = 0x02000000)
T4D90 002:476.429   Data:  0A 00 5A A5
T4D90 002:476.464   CPU_WriteMem(4 bytes @ 0x402F009C)
T4D90 002:476.813 - 0.442ms returns 0x4
T4D90 002:476.858 JLINK_ReadMemEx(0x402F003C, 0x4 Bytes, Flags = 0x02000000)
T4D90 002:476.880   CPU_ReadMem(4 bytes @ 0x402F003C)
T4D90 002:477.191   Data:  09 00 00 00
T4D90 002:477.241 - 0.391ms returns 4 (0x4)
T4D90 002:477.285 JLINK_WriteMemEx(0x402F003C, 0x00000004 Bytes, Flags = 0x02000000)
T4D90 002:477.301   Data:  03 00 00 00
T4D90 002:477.329   CPU_WriteMem(4 bytes @ 0x402F003C)
T4D90 002:477.683 - 0.413ms returns 0x4
T4D90 002:477.715 JLINK_WriteMemEx(0x402F004C, 0x00000004 Bytes, Flags = 0x02000000)
T4D90 002:477.731   Data:  01 0A 08 08
T4D90 002:477.759   CPU_WriteMem(4 bytes @ 0x402F004C)
T4D90 002:478.068 - 0.368ms returns 0x4
T4D90 002:539.015 JLINK_WriteMemEx(0x80000000, 0x00001000 Bytes, Flags = 0x02000000)
T4D90 002:539.055   Data:  00 00 2C 20 3D 04 00 80 79 04 00 80 7D 04 00 80 ...
T4D90 002:539.703   CPU_WriteMem(4096 bytes @ 0x80000000)
T4D90 002:551.477 - 12.546ms returns 0x1000
T4D90 002:552.758 JLINK_WriteMemEx(0x80001000, 0x00001000 Bytes, Flags = 0x02000000)
T4D90 002:552.783   Data:  00 2A 40 F0 A7 80 BC EB 01 02 4F F0 01 06 18 BF ...
T4D90 002:552.820   CPU_WriteMem(4096 bytes @ 0x80001000)
T4D90 002:564.800 - 12.073ms returns 0x1000
T4D90 002:565.252 JLINK_WriteMemEx(0x80002000, 0x00001000 Bytes, Flags = 0x02000000)
T4D90 002:565.288   Data:  C9 06 32 D4 40 F2 2C 01 C2 F2 20 01 09 68 30 E0 ...
T4D90 002:565.330   CPU_WriteMem(4096 bytes @ 0x80002000)
T4D90 002:577.112 - 11.898ms returns 0x1000
T4D90 002:577.617 JLINK_WriteMemEx(0x80003000, 0x00001000 Bytes, Flags = 0x02000000)
T4D90 002:577.640   Data:  00 F0 B2 FB 43 F6 4F 60 43 F6 56 61 C8 F2 00 00 ...
T4D90 002:577.681   CPU_WriteMem(4096 bytes @ 0x80003000)
T4D90 002:589.462 - 11.875ms returns 0x1000
T4D90 002:590.004 JLINK_WriteMemEx(0x80004000, 0x00001000 Bytes, Flags = 0x02000000)
T4D90 002:590.035   Data:  01 FF 01 FF 01 FF 01 FF 01 FF 01 FF 01 FF 01 FF ...
T4D90 002:590.074   CPU_WriteMem(4096 bytes @ 0x80004000)
T4D90 002:601.842 - 11.881ms returns 0x1000
T4D90 002:602.273 JLINK_WriteMemEx(0x80005000, 0x00001000 Bytes, Flags = 0x02000000)
T4D90 002:602.295   Data:  01 FF 01 FF 01 FF 01 FF 01 FF 01 FF 01 FF 01 FF ...
T4D90 002:602.332   CPU_WriteMem(4096 bytes @ 0x80005000)
T4D90 002:614.078 - 11.835ms returns 0x1000
T4D90 002:614.530 JLINK_WriteMemEx(0x80006000, 0x00001000 Bytes, Flags = 0x02000000)
T4D90 002:614.560   Data:  01 FF 01 FF 01 FF 01 FF 01 FF 01 FF 01 FF 01 FF ...
T4D90 002:614.602   CPU_WriteMem(4096 bytes @ 0x80006000)
T4D90 002:626.321 - 11.848ms returns 0x1000
T4D90 002:626.947 JLINK_WriteMemEx(0x80007000, 0x00001000 Bytes, Flags = 0x02000000)
T4D90 002:626.969   Data:  01 FF 01 FF 01 FF 01 FF 01 FF 01 FF 01 FF 01 FF ...
T4D90 002:627.006   CPU_WriteMem(4096 bytes @ 0x80007000)
T4D90 002:638.877 - 11.962ms returns 0x1000
T4D90 002:639.291 JLINK_WriteMemEx(0x80008000, 0x00001000 Bytes, Flags = 0x02000000)
T4D90 002:639.312   Data:  01 FF 01 FF 01 FF 01 FF 01 FF 01 FF 01 FF 01 FF ...
